
**** 02/05/21 13:52:31 ******* PSpice 17.4.0 (Nov 2018) ******* ID# 0 ********

 ** Profile: "SCHEMATIC1-AC_Sweep"  [ C:\Users\a0232073\Desktop\GWL_Models\OPA855\OPA858-PSpiceFiles\SCHEMATIC1\AC_Sweep.sim ] 


 ****     CIRCUIT DESCRIPTION


******************************************************************************




** Creating circuit file "AC_Sweep.cir" 
** WARNING: THIS AUTOMATICALLY GENERATED FILE MAY BE OVERWRITTEN BY SUBSEQUENT SIMULATIONS

*Libraries: 
* Profile Libraries :
.INC "C:\Users\a0232073\Desktop\GWL_Models\OPA855\OPA858-PSpiceFiles\SCHEMATIC1\AC_Sweep\AC_Sweep_profile.inc" 
* Local Libraries :
* From [PSPICE NETLIST] section of C:\SPB_Data\cdssetup\OrCAD_PSpiceTIPSpice_Install\17.4.0\PSpice.ini file:

**** INCLUDING AC_Sweep_profile.inc ****
.LIB    ".\OPA858.lib" 

**** RESUMING AC_Sweep.cir ****
.lib "nom_pspti.lib" 
.lib "nom.lib" 

*Analysis directives: 
.AC DEC 40 100k 10e9
.OPTIONS ADVCONV
.PROBE64 N([OUT])
.INC "..\SCHEMATIC1.net" 



**** INCLUDING SCHEMATIC1.net ****
* source OPA858
X_U1         IN+ N00412 VS+ VS- OUT OPA858
R_R1         0 OUT  200 TC=0,0 
R_R2         N00412 OUT  453 TC=0,0 
R_R3         0 N00412  75 TC=0,0 
V_V1         VS+ 0 2.5Vdc
V_V2         VS- 0 -2.4Vdc
V_V3         IN+ 0 DC 0Vdc AC 1Vac 

**** RESUMING AC_Sweep.cir ****
.END

INFO(ORPSIM-16573): AC analysis does not support expression evaluation at each frequency. ABM devices with non-linear operations will be evaluated only at bias point.

**** 02/05/21 13:52:31 ******* PSpice 17.4.0 (Nov 2018) ******* ID# 0 ********

 ** Profile: "SCHEMATIC1-AC_Sweep"  [ C:\Users\a0232073\Desktop\GWL_Models\OPA855\OPA858-PSpiceFiles\SCHEMATIC1\AC_Sweep.sim ] 


 ****     Diode MODEL PARAMETERS


******************************************************************************




               X_U1.XI0.XI18.X1.DVNF 
          IS  100.000000E-18 
          KF  100.000000E-15 


               X_U1.XI0.XI63.X1.DVNF 
          IS  100.000000E-18 
          KF  100.000000E-15 


               X_U1.XI0.XI17.X1.DVN 
          IS  100.000000E-18 
          KF  100.000000E-15 


**** 02/05/21 13:52:31 ******* PSpice 17.4.0 (Nov 2018) ******* ID# 0 ********

 ** Profile: "SCHEMATIC1-AC_Sweep"  [ C:\Users\a0232073\Desktop\GWL_Models\OPA855\OPA858-PSpiceFiles\SCHEMATIC1\AC_Sweep.sim ] 


 ****     SMALL SIGNAL BIAS SOLUTION       TEMPERATURE =   27.000 DEG C


******************************************************************************



 NODE   VOLTAGE     NODE   VOLTAGE     NODE   VOLTAGE     NODE   VOLTAGE


(  IN+)    0.0000  (  OUT) 554.9E-06  (  VS+)    2.5000  (  VS-)   -2.4000      

(N00412) 78.82E-06 (X_U1.PD)    2.4752                                          

(X_U1.XI0.NET1)-282.9E-15             (X_U1.XI0.NET2) 78.82E-06                 

(X_U1.XI0.HIGHZ) 599.9E-06            (X_U1.XI0.NET11)-282.9E-15                

(X_U1.XI0.NET12) 78.82E-06            (X_U1.XI0.NET21) 78.89E-06                

(X_U1.XI0.NET22) 78.82E-06            (X_U1.XI0.NET31) 599.9E-06                

(X_U1.XI0.NET32)    0.0000            (X_U1.XI0.NET41) 599.9E-06                

(X_U1.XI0.NET51) 599.9E-06            (X_U1.XI0.NET61) 599.9E-06                

(X_U1.XI0.NET71) 599.9E-06            (X_U1.XI0.PDINV)   -2.4000                

(X_U1.XI0.POWER)    2.5000            (X_U1.XI0.VCC_INT)    2.5000              

(X_U1.XI0.VEE_INT)   -2.4000          (X_U1.XI0.XI60.Ib) 28.19E-15              

(X_U1.XI0.XI60.Io) 2.663E-15          (X_U1.XI0.VINM_INT) 78.82E-06             

(X_U1.XI0.VINP_INT) 78.89E-06         (X_U1.XI0.XI30.VOH)    1.6000             

(X_U1.XI0.XI30.VOL)   -1.3500         (X_U1.XI0.XI40.ION)     .0202             

(X_U1.XI0.XI17.X1.3)    0.0000        (X_U1.XI0.XI17.X1.4)    0.0000            

(X_U1.XI0.XI17.X1.5)    0.0000        (X_U1.XI0.XI17.X1.6)    0.0000            

(X_U1.XI0.XI17.X1.7)     .8338        (X_U1.XI0.XI17.X1.8)     .8338            

(X_U1.XI0.XI18.X1.3)    0.0000        (X_U1.XI0.XI18.X1.4)    0.0000            

(X_U1.XI0.XI18.X1.5)    0.0000        (X_U1.XI0.XI18.X1.6)    0.0000            

(X_U1.XI0.XI18.X1.7)     .8338        (X_U1.XI0.XI18.X1.8)     .8338            

(X_U1.XI0.XI19.X1.1) 35.66E-06        (X_U1.XI0.XI19.X1.2)    0.0000            

(X_U1.XI0.XI19.X1.3)-252.3E-06        (X_U1.XI0.XI19.X1.4)    0.0000            

(X_U1.XI0.XI21.X1.1) 7.813E-12        (X_U1.XI0.XI21.X1.2)    0.0000            

(X_U1.XI0.XI26.NET4) 599.9E-06        (X_U1.XI0.XI28.NET8)    2.5100            

(X_U1.XI0.XI28.NET9)   -2.4100        (X_U1.XI0.XI40.X1.3)    0.0000            

(X_U1.XI0.XI52.X1.3)    0.0000        (X_U1.XI0.XI58.NET7) 599.9E-06            

(X_U1.XI0.XI63.X1.3)    0.0000        (X_U1.XI0.XI63.X1.4)    0.0000            

(X_U1.XI0.XI63.X1.5)    0.0000        (X_U1.XI0.XI63.X1.6)    0.0000            

(X_U1.XI0.XI63.X1.7)     .8338        (X_U1.XI0.XI63.X1.8)     .8338            

(X_U1.XI0.XI19.X1.1a)    0.0000       (X_U1.XI0.XI19.X1.3a)    0.0000           

(X_U1.XI0.XI21.X1.1a)-1.616E-27       (X_U1.XI0.XI30.NET15) 554.9E-06           

(X_U1.XI0.XI30.NET17) 558.7E-06       (X_U1.XI0.XI30.NET22) 599.9E-06           

(X_U1.XI0.XI30.NET34) 554.9E-06       (X_U1.XI0.XI30.NET53) 558.7E-06           

(X_U1.XI0.XI30.VIMON) 3.825E-06       (X_U1.XI0.XI40.PDINV)    0.0000           

(X_U1.XI0.XI52.PDINV)    0.0000       (X_U1.XI0.XI67.NET12)    1.2500           

(X_U1.XI0.XI67.NET16) 78.89E-06       (X_U1.XI0.XI67.NET20)   -2.6500           

(X_U1.XI0.XI68.NET12)    1.2500       (X_U1.XI0.XI68.NET16) 78.82E-06           

(X_U1.XI0.XI68.NET20)   -2.6500       (X_U1.XI0.XI85.NET15) 599.9E-06           

(X_U1.XI0.XI85.NET27) 599.9E-06       (X_U1.XI0.XI19.X1.101) 35.66E-06          

(X_U1.XI0.XI19.X1.102) 35.66E-06      (X_U1.XI0.XI19.X1.301)-252.3E-06          

(X_U1.XI0.XI19.X1.302)-252.3E-06      (X_U1.XI0.XI21.X1.101) 7.813E-12          

(X_U1.XI0.XI21.X1.102) 7.813E-12      (X_U1.XI0.XI26.NET019) 599.9E-06          

(X_U1.XI0.XI26.NET020) 599.9E-06      (X_U1.XI0.XI28.NET014) 599.9E-06          

(X_U1.XI0.XI30.NET068) 554.9E-06      (X_U1.XI0.XI30.NET070)    1.6000          

(X_U1.XI0.XI30.NET092) 558.7E-06      (X_U1.XI0.XI40.LOGIC1)    1.0000          

(X_U1.XI0.XI52.LOGIC1)    1.0000      (X_U1.XI0.XI85.NET024) 599.9E-06          

(X_U1.XI0.XI85.NET026) 599.9E-06      (X_U1.XI0.XI30.NET0017) 558.7E-06         

(X_U1.XI0.XI30.NET0100) 558.7E-06     (X_U1.XI0.XI30.NET0146) 558.7E-06         

(X_U1.XI0.XI30.VIMONINV)-3.825E-06    (X_U1.XI0.XI30.XI0.X1.3)    0.0000        

(X_U1.XI0.XI40.ION_SEG1)    0.0000    (X_U1.XI0.XI40.ION_SEG2)    0.0000        

(X_U1.XI0.XI40.ION_SEG3)    1.0000    (X_U1.XI0.XI52.ITAILMAX)     .0010        

(X_U1.XI0.XI52.ITAILMIN)     .0010    (X_U1.XI0.XI30.XI0.PDINV)    0.0000       

(X_U1.XI0.XI30.XI0.LOGIC1)    1.0000  




    VOLTAGE SOURCE CURRENTS
    NAME         CURRENT

    V_V1        -2.022E-02
    V_V2         2.022E-02
    V_V3        -2.829E-12
    X_U1.XI0.VPROBE2  -1.976E-13
    X_U1.XI0.VDOMPOLEBIAS   1.976E-13
    X_U1.XI0.VPROBE1   1.501E-09
    X_U1.XI0.XI67.V0   2.960E-14
    X_U1.XI0.XI67.VESDL   5.300E-12
    X_U1.XI0.XI67.VESDH   2.500E-12
    X_U1.XI0.XI68.V0   2.694E-14
    X_U1.XI0.XI68.VESDL   5.300E-12
    X_U1.XI0.XI68.VESDH   2.500E-12
    X_U1.XI0.XI52.VLOGIC1   0.000E+00
    X_U1.XI0.XI30.VPROBE3  -3.199E-12
    X_U1.XI0.XI30.VPROBE4  -2.701E-12
    X_U1.XI0.XI30.VCURSOURCEDETECT   3.825E-06
    X_U1.XI0.XI30.VCURSINKDETECT  -3.825E-06
    X_U1.XI0.XI30.VPROBE1   3.825E-06
    X_U1.XI0.XI28.VBRIDGE   1.976E-13
    X_U1.XI0.XI28.VPROBE   0.000E+00
    X_U1.XI0.XI28.VRECL   4.821E-12
    X_U1.XI0.XI28.VRECH   5.019E-12
    X_U1.XI0.XI40.VLOGIC1   0.000E+00
    X_U1.XI0.XI30.XI0.VLOGIC1   0.000E+00

    TOTAL POWER DISSIPATION   9.91E-02  WATTS



          JOB CONCLUDED

**** 02/05/21 13:52:31 ******* PSpice 17.4.0 (Nov 2018) ******* ID# 0 ********

 ** Profile: "SCHEMATIC1-AC_Sweep"  [ C:\Users\a0232073\Desktop\GWL_Models\OPA855\OPA858-PSpiceFiles\SCHEMATIC1\AC_Sweep.sim ] 


 ****     JOB STATISTICS SUMMARY


******************************************************************************



  License check-out time            =        9.49
  Total job time (using Solver 1)   =        1.42
