
**** 05/26/21 16:05:40 ******* PSpice 17.4.0 (Nov 2018) ******* ID# 0 ********

 ** Profile: "SCHEMATIC1-TransientAnalysis"  [ C:\Users\a0232073\Downloads\OPA859\opa859-pspicefiles\schematic1\transientanalysis.sim


 ****     CIRCUIT DESCRIPTION


******************************************************************************




** Creating circuit file "TransientAnalysis.cir" 
** WARNING: THIS AUTOMATICALLY GENERATED FILE MAY BE OVERWRITTEN BY SUBSEQUENT SIMULATIONS

*Libraries: 
* Profile Libraries :
.INC "C:\Users\a0232073\Downloads\OPA859\opa859-pspicefiles\schematic1\TransientAnalysis\TransientAnalysis_profile.inc" 
* Local Libraries :
* From [PSPICE NETLIST] section of C:\SPB_Data\cdssetup\OrCAD_PSpiceTIPSpice_Install\17.4.0\PSpice.ini file:

**** INCLUDING TransientAnalysis_profile.inc ****
.LIB    ".\OPA859.lib" 

**** RESUMING TransientAnalysis.cir ****
.lib "nom_pspti.lib" 
.lib "nom.lib" 

*Analysis directives: 
.TRAN  0 20ns 0 0.01e-9 
.OPTIONS ADVCONV
.OPTIONS FILEMODELSEARCH
.PROBE64 N([VOUT])
.INC "..\SCHEMATIC1.net" 



**** INCLUDING SCHEMATIC1.net ****
* source OPA859
V_V1         VCC 0 5Vdc
R_R2         VREF N07087  45.3 TC=0,0 
V_V2         VREF 0 2.5Vdc
R_R1         N07087 VOUT  453 TC=0,0 
V_V3         VEE 0 0Vdc
R_R4         VOUT VREF  200 TC=0,0 
V_V4         N06887 VREF  AC 1
+SIN 0 0.1 100e6 0 0 0
X_U1         N06887 N07087 VCC VEE VOUT VCC OPA859

**** RESUMING TransientAnalysis.cir ****
.END

**** 05/26/21 16:05:40 ******* PSpice 17.4.0 (Nov 2018) ******* ID# 0 ********

 ** Profile: "SCHEMATIC1-TransientAnalysis"  [ C:\Users\a0232073\Downloads\OPA859\opa859-pspicefiles\schematic1\transientanalysis.sim


 ****     Diode MODEL PARAMETERS


******************************************************************************




               X_U1.XU1.XI18.X1.DVNF 
          IS  100.000000E-18 
          KF  100.000000E-15 


               X_U1.XU1.XI63.X1.DVNF 
          IS  100.000000E-18 
          KF  100.000000E-15 


               X_U1.XU1.XI17.X1.DVN 
          IS  100.000000E-18 
          KF   10.000000E-12 


**** 05/26/21 16:05:40 ******* PSpice 17.4.0 (Nov 2018) ******* ID# 0 ********

 ** Profile: "SCHEMATIC1-TransientAnalysis"  [ C:\Users\a0232073\Downloads\OPA859\opa859-pspicefiles\schematic1\transientanalysis.sim


 ****     INITIAL TRANSIENT SOLUTION       TEMPERATURE =   27.000 DEG C


******************************************************************************



 NODE   VOLTAGE     NODE   VOLTAGE     NODE   VOLTAGE     NODE   VOLTAGE


(  VCC)    5.0000  (  VEE)    0.0000  ( VOUT)    2.4886  ( VREF)    2.5000      

(N06887)    2.5000 (N07087)    2.4990 (X_U1.XU1.25)    2.4990                   

(X_U1.XU1.net1)    2.5000             (X_U1.XU1.net2)    2.4990                 

(X_U1.XU1.HighZ)    2.4878            (X_U1.XU1.net11)    2.5000                

(X_U1.XU1.net21)    2.5001            (X_U1.XU1.net22)    2.4990                

(X_U1.XU1.net31)    2.4878            (X_U1.XU1.net32)    0.0000                

(X_U1.XU1.net41)    2.4878            (X_U1.XU1.NET51)    2.4878                

(X_U1.XU1.net61)    2.4878            (X_U1.XU1.net71)    2.4878                

(X_U1.XU1.PDinv)    0.0000            (X_U1.XU1.Power)    5.0000                

(X_U1.XU1.VCC_INT)    5.0000          (X_U1.XU1.VEE_INT)    0.0000              

(X_U1.XU1.XI28.95)    2.4878          (X_U1.XU1.XI28.96) -200.0000              

(X_U1.XU1.XI28.97)  205.0000          (X_U1.XU1.XI30.35)    2.4878              

(X_U1.XU1.XI30.36)    2.4886          (X_U1.XU1.XI30.37)    2.4886              

(X_U1.XU1.XI30.38)    2.4886          (X_U1.XU1.XI30.39)    2.4886              

(X_U1.XU1.XI30.40)    2.4886          (X_U1.XU1.XI30.43)    2.4886              

(X_U1.XU1.XI30.44)    2.4886          (X_U1.XU1.XI30.45)    4.1000              

(X_U1.XU1.XI54.56)    2.5001          (X_U1.XU1.XI54.57)    -.2500              

(X_U1.XU1.XI54.58)    3.7500          (X_U1.XU1.XI56.56)    2.4990              

(X_U1.XU1.XI56.57)    -.2500          (X_U1.XU1.XI56.58)    3.7500              

(X_U1.XU1.XI60.IB)-2.971E-12          (X_U1.XU1.XI60.IO) 1.226E-15              

(X_U1.XU1.Vinm_int)    2.4990         (X_U1.XU1.Vinp_int)    2.5001             

(X_U1.XU1.XI26.111)    2.4878         (X_U1.XU1.XI26.112)    2.4878             

(X_U1.XU1.XI26.113)    2.4878         (X_U1.XU1.XI30.VOH)    4.1000             

(X_U1.XU1.XI30.VOL)    1.0500         (X_U1.XU1.XI40.ION)     .0202             

(X_U1.XU1.XI85.105)    2.4878         (X_U1.XU1.XI85.106)    2.4878             

(X_U1.XU1.XI85.107)    2.4878         (X_U1.XU1.XI85.108)    2.4878             

(X_U1.XU1.XI85.109)    2.4878         (X_U1.XU1.XI85.110)    2.4878             

(X_U1.XU1.XI17.X1.3)    0.0000        (X_U1.XU1.XI17.X1.4)    0.0000            

(X_U1.XU1.XI17.X1.5)    0.0000        (X_U1.XU1.XI17.X1.6)    0.0000            

(X_U1.XU1.XI17.X1.7)     .8338        (X_U1.XU1.XI17.X1.8)     .8338            

(X_U1.XU1.XI18.X1.3)    0.0000        (X_U1.XU1.XI18.X1.4)    0.0000            

(X_U1.XU1.XI18.X1.5)    0.0000        (X_U1.XU1.XI18.X1.6)    0.0000            

(X_U1.XU1.XI18.X1.7)     .8338        (X_U1.XU1.XI18.X1.8)     .8338            

(X_U1.XU1.XI19.X1.1) 70.63E-06        (X_U1.XU1.XI19.X1.2)    0.0000            

(X_U1.XU1.XI19.X1.3)    0.0000        (X_U1.XU1.XI19.X1.4)    0.0000            

(X_U1.XU1.XI21.X1.1) 5.594E-06        (X_U1.XU1.XI21.X1.2)    0.0000            

(X_U1.XU1.XI40.X1.3)    0.0000        (X_U1.XU1.XI52.X1.3)    0.0000            

(X_U1.XU1.XI63.X1.3)    0.0000        (X_U1.XU1.XI63.X1.4)    0.0000            

(X_U1.XU1.XI63.X1.5)    0.0000        (X_U1.XU1.XI63.X1.6)    0.0000            

(X_U1.XU1.XI63.X1.7)     .8338        (X_U1.XU1.XI63.X1.8)     .8338            

(X_U1.XU1.XI19.X1.1A)    0.0000       (X_U1.XU1.XI19.X1.3A)    0.0000           

(X_U1.XU1.XI21.X1.1A) 1.694E-21       (X_U1.XU1.XI30.VIMON)-79.57E-06           

(X_U1.XU1.XI40.PDINV)    0.0000       (X_U1.XU1.XI52.PDINV)    0.0000           

(X_U1.XU1.XI56_2.114)    2.4878       (X_U1.XU1.XI19.X1.101) 70.63E-06          

(X_U1.XU1.XI19.X1.102) 70.63E-06      (X_U1.XU1.XI19.X1.301)    0.0000          

(X_U1.XU1.XI19.X1.302)    0.0000      (X_U1.XU1.XI21.X1.101) 5.594E-06          

(X_U1.XU1.XI21.X1.102) 5.594E-06      (X_U1.XU1.XI40.LOGIC1)    1.0000          

(X_U1.XU1.XI52.LOGIC1)    1.0000      (X_U1.XU1.XI30.VIMONINV) 79.57E-06        

(X_U1.XU1.XI30.XU1.X1.3)    0.0000    (X_U1.XU1.XI40.ION_SEG1)    0.0000        

(X_U1.XU1.XI40.ION_SEG2)    0.0000    (X_U1.XU1.XI40.ION_SEG3)    1.0000        

(X_U1.XU1.XI52.ITAILMAX)     .0011    (X_U1.XU1.XI52.ITAILMIN) 930.0E-06        

(X_U1.XU1.XI30.XU1.PDINV)    0.0000   (X_U1.XU1.XI30.XU1.LOGIC1)    1.0000  




    VOLTAGE SOURCE CURRENTS
    NAME         CURRENT

    V_V1        -2.021E-02
    V_V2        -7.957E-05
    V_V3         2.029E-02
    V_V4        -2.803E-11
    X_U1.XU1.Vprobe2  -4.862E-14
    X_U1.XU1.VDomPoleBias  -8.501E-14
    X_U1.XU1.Vprobe1   5.187E-06
    X_U1.XU1.XI30.Vprobe4  -2.877E-12
    X_U1.XU1.XI30.VProbe3  -3.223E-12
    X_U1.XU1.XI30.VCurSinkDetect_in   7.957E-05
    X_U1.XU1.XI30.VCurSourceDetect_in  -7.957E-05
    X_U1.XU1.XI52.VLOGIC1   0.000E+00
    X_U1.XU1.XI56.VIL   5.498E-12
    X_U1.XU1.XI56.VIH   2.502E-12
    X_U1.XU1.XI56.V0  -4.727E-13
    X_U1.XU1.XI54.VIL   5.500E-12
    X_U1.XU1.XI54.VIH   2.500E-12
    X_U1.XU1.XI54.V0  -4.704E-13
    X_U1.XU1.XI28.Vbridge   4.862E-14
    X_U1.XU1.XI28.Vprobe   0.000E+00
    X_U1.XU1.XI28.VRecL   4.050E-10
    X_U1.XU1.XI28.VRecH   4.050E-10
    X_U1.XU1.XI40.VLOGIC1   0.000E+00
    X_U1.XU1.XI30.XU1.VLOGIC1   0.000E+00

    TOTAL POWER DISSIPATION   1.01E-01  WATTS



          JOB CONCLUDED

**** 05/26/21 16:05:40 ******* PSpice 17.4.0 (Nov 2018) ******* ID# 0 ********

 ** Profile: "SCHEMATIC1-TransientAnalysis"  [ C:\Users\a0232073\Downloads\OPA859\opa859-pspicefiles\schematic1\transientanalysis.sim


 ****     JOB STATISTICS SUMMARY


******************************************************************************



  License check-out time            =        7.78
  Total job time (using Solver 1)   =        3.17
